Freq.	V(vout)	V(vout)/V(vin)
1.00000000000000e+02	(-5.87694044888880e+00dB,-9.30048262338819e+01°)	(1.97331069092753e+01dB,1.80000000000000e+02°)
1.02329299228075e+02	(-5.67750283620326e+00dB,-9.30746848572280e+01°)	(1.97331069092753e+01dB,1.80000000000000e+02°)
1.04712854805090e+02	(-5.47809164997052e+00dB,-9.31461612238929e+01°)	(1.97331069092753e+01dB,1.80000000000000e+02°)
1.07151930523761e+02	(-5.27870812812452e+00dB,-9.32192923412064e+01°)	(1.97331069092753e+01dB,1.80000000000000e+02°)
1.09647819614318e+02	(-5.07935356622047e+00dB,-9.32941160305869e+01°)	(1.97331069092753e+01dB,1.80000000000000e+02°)
1.12201845430196e+02	(-4.88002932008140e+00dB,-9.33706709431169e+01°)	(1.97331069092753e+01dB,-1.80000000000000e+02°)
1.14815362149688e+02	(-4.68073680856287e+00dB,-9.34489965752441e+01°)	(1.97331069092753e+01dB,1.80000000000000e+02°)
1.17489755493953e+02	(-4.48147751644081e+00dB,-9.35291332845948e+01°)	(1.97331069092753e+01dB,1.80000000000000e+02°)
1.20226443461741e+02	(-4.28225299742750e+00dB,-9.36111223058844e+01°)	(1.97331069092753e+01dB,1.80000000000000e+02°)
1.23026877081238e+02	(-4.08306487732105e+00dB,-9.36950057669086e+01°)	(1.97331069092753e+01dB,-1.80000000000000e+02°)
1.25892541179417e+02	(-3.88391485729395e+00dB,-9.37808267045975e+01°)	(1.97331069092753e+01dB,1.80000000000000e+02°)
1.28824955169313e+02	(-3.68480471732612e+00dB,-9.38686290811125e+01°)	(1.97331069092753e+01dB,1.80000000000000e+02°)
1.31825673855641e+02	(-3.48573631978852e+00dB,-9.39584577999651e+01°)	(1.97331069092753e+01dB,-1.80000000000000e+02°)
1.34896288259165e+02	(-3.28671161318324e+00dB,-9.40503587221328e+01°)	(1.97331069092753e+01dB,1.80000000000000e+02°)
1.38038426460288e+02	(-3.08773263604621e+00dB,-9.41443786821472e+01°)	(1.97331069092753e+01dB,-1.80000000000000e+02°)
1.41253754462275e+02	(-2.88880152101915e+00dB,-9.42405655041271e+01°)	(1.97331069092753e+01dB,1.80000000000000e+02°)
1.44543977074593e+02	(-2.68992049909705e+00dB,-9.43389680177233e+01°)	(1.97331069092753e+01dB,1.80000000000000e+02°)
1.47910838816821e+02	(-2.49109190405813e+00dB,-9.44396360739455e+01°)	(1.97331069092753e+01dB,-1.80000000000000e+02°)
1.51356124843621e+02	(-2.29231817708319e+00dB,-9.45426205608331e+01°)	(1.97331069092753e+01dB,-1.80000000000000e+02°)
1.54881661891248e+02	(-2.09360187157135e+00dB,-9.46479734189316e+01°)	(1.97331069092753e+01dB,-1.80000000000000e+02°)
1.58489319246111e+02	(-1.89494565815956e+00dB,-9.47557476565334e+01°)	(1.97331069092753e+01dB,-1.80000000000000e+02°)
1.62181009735893e+02	(-1.69635232995330e+00dB,-9.48659973646369e+01°)	(1.97331069092753e+01dB,1.80000000000000e+02°)
1.65958690743756e+02	(-1.49782480797602e+00dB,-9.49787777315751e+01°)	(1.97331069092753e+01dB,1.80000000000000e+02°)
1.69824365246174e+02	(-1.29936614684504e+00dB,-9.50941450572615e+01°)	(1.97331069092753e+01dB,1.80000000000000e+02°)
1.73780082874937e+02	(-1.10097954068186e+00dB,-9.52121567669969e+01°)	(1.97331069092753e+01dB,1.80000000000000e+02°)
1.77827941003892e+02	(-9.02668329264739e-01dB,-9.53328714247743e+01°)	(1.97331069092753e+01dB,1.80000000000000e+02°)
1.81970085860998e+02	(-7.04436004431619e-01dB,-9.54563487460193e+01°)	(1.97331069092753e+01dB,1.80000000000000e+02°)
1.86208713666287e+02	(-5.06286216741690e-01dB,-9.55826496096935e+01°)	(1.97331069092753e+01dB,1.80000000000000e+02°)
1.90546071796324e+02	(-3.08222782403600e-01dB,-9.57118360696867e+01°)	(1.97331069092753e+01dB,1.80000000000000e+02°)
1.94984459975804e+02	(-1.10249690478679e-01dB,-9.58439713654167e+01°)	(1.97331069092753e+01dB,-1.80000000000000e+02°)
1.99526231496888e+02	(8.76288896326628e-02dB,-9.59791199315516e+01°)	(1.97331069092753e+01dB,-1.80000000000000e+02°)
2.04173794466953e+02	(2.85408600413112e-01dB,-9.61173474067600e+01°)	(1.97331069092753e+01dB,1.80000000000000e+02°)
2.08929613085404e+02	(4.83084888151112e-01dB,-9.62587206413938e+01°)	(1.97331069092753e+01dB,1.80000000000000e+02°)
2.13796208950223e+02	(6.80652994555953e-01dB,-9.64033077039956e+01°)	(1.97331069092753e+01dB,1.80000000000000e+02°)
2.18776162394955e+02	(8.78107948057439e-01dB,-9.65511778865206e+01°)	(1.97331069092753e+01dB,1.80000000000000e+02°)
2.23872113856834e+02	(1.07544455478253e+00dB,-9.67024017081526e+01°)	(1.97331069092753e+01dB,-1.80000000000000e+02°)
2.29086765276777e+02	(1.27265738920147e+00dB,-9.68570509175877e+01°)	(1.97331069092753e+01dB,-1.80000000000000e+02°)
2.34422881531992e+02	(1.46974078443640e+00dB,-9.70151984936509e+01°)	(1.97331069092753e+01dB,1.80000000000000e+02°)
2.39883291901949e+02	(1.66668882222585e+00dB,-9.71769186441024e+01°)	(1.97331069092753e+01dB,-1.80000000000000e+02°)
2.45470891568503e+02	(1.86349532253884e+00dB,-9.73422868024808e+01°)	(1.97331069092753e+01dB,-1.80000000000000e+02°)
2.51188643150958e+02	(2.06015383283295e+00dB,-9.75113796228236e+01°)	(1.97331069092753e+01dB,1.80000000000000e+02°)
2.57039578276886e+02	(2.25665761695157e+00dB,-9.76842749720944e+01°)	(1.97331069092753e+01dB,1.80000000000000e+02°)
2.63026799189538e+02	(2.45299964365590e+00dB,-9.78610519201360e+01°)	(1.97331069092753e+01dB,1.80000000000000e+02°)
2.69153480392691e+02	(2.64917257478848e+00dB,-9.80417907269604e+01°)	(1.97331069092753e+01dB,-1.80000000000000e+02°)
2.75422870333816e+02	(2.84516875306589e+00dB,-9.82265728271749e+01°)	(1.97331069092753e+01dB,1.80000000000000e+02°)
2.81838293126445e+02	(3.04098018949936e+00dB,-9.84154808113328e+01°)	(1.97331069092753e+01dB,1.80000000000000e+02°)
2.88403150312660e+02	(3.23659855044331e+00dB,-9.86085984039885e+01°)	(1.97331069092753e+01dB,1.80000000000000e+02°)
2.95120922666638e+02	(3.43201514427314e+00dB,-9.88060104382220e+01°)	(1.97331069092753e+01dB,1.80000000000000e+02°)
3.01995172040201e+02	(3.62722090769562e+00dB,-9.90078028263901e+01°)	(1.97331069092753e+01dB,1.80000000000000e+02°)
3.09029543251358e+02	(3.82220639169618e+00dB,-9.92140625268476e+01°)	(1.97331069092753e+01dB,1.80000000000000e+02°)
3.16227766016837e+02	(4.01696174713012e+00dB,-9.94248775063725e+01°)	(1.97331069092753e+01dB,1.80000000000000e+02°)
3.23593656929628e+02	(4.21147670996645e+00dB,-9.96403366980155e+01°)	(1.97331069092753e+01dB,1.80000000000000e+02°)
3.31131121482590e+02	(4.40574058619568e+00dB,-9.98605299540843e+01°)	(1.97331069092753e+01dB,1.80000000000000e+02°)
3.38844156139202e+02	(4.59974223641513e+00dB,-1.00085547993961e+02°)	(1.97331069092753e+01dB,1.80000000000000e+02°)
3.46736850452531e+02	(4.79347006010868e+00dB,-1.00315482346442e+02°)	(1.97331069092753e+01dB,1.80000000000000e+02°)
3.54813389233575e+02	(4.98691197964040e+00dB,-1.00550425286271e+02°)	(1.97331069092753e+01dB,-1.80000000000000e+02°)
3.63078054770101e+02	(5.18005542398533e+00dB,-1.00790469764547e+02°)	(1.97331069092753e+01dB,1.80000000000000e+02°)
3.71535229097172e+02	(5.37288731222402e+00dB,-1.01035709332642e+02°)	(1.97331069092753e+01dB,-1.80000000000000e+02°)
3.80189396320560e+02	(5.56539403683156e+00dB,-1.01286238059298e+02°)	(1.97331069092753e+01dB,-1.80000000000000e+02°)
3.89045144994280e+02	(5.75756144679592e+00dB,-1.01542150440538e+02°)	(1.97331069092753e+01dB,-1.80000000000000e+02°)
3.98107170553496e+02	(5.94937483060514e+00dB,-1.01803541302013e+02°)	(1.97331069092753e+01dB,1.80000000000000e+02°)
4.07380277804112e+02	(6.14081889914767e+00dB,-1.02070505693438e+02°)	(1.97331069092753e+01dB,1.80000000000000e+02°)
4.16869383470335e+02	(6.33187776857550e+00dB,-1.02343138774721e+02°)	(1.97331069092753e+01dB,-1.80000000000000e+02°)
4.26579518801592e+02	(6.52253494318517e+00dB,-1.02621535693426e+02°)	(1.97331069092753e+01dB,1.80000000000000e+02°)
4.36515832240165e+02	(6.71277329837769e+00dB,-1.02905791453177e+02°)	(1.97331069092753e+01dB,1.80000000000000e+02°)
4.46683592150962e+02	(6.90257506376472e+00dB,-1.03196000772659e+02°)	(1.97331069092753e+01dB,1.80000000000000e+02°)
4.57088189614874e+02	(7.09192180649483e+00dB,-1.03492257934816e+02°)	(1.97331069092753e+01dB,-1.80000000000000e+02°)
4.67735141287197e+02	(7.28079441488060e+00dB,-1.03794656625920e+02°)	(1.97331069092753e+01dB,1.80000000000000e+02°)
4.78630092322637e+02	(7.46917308241467e+00dB,-1.04103289764146e+02°)	(1.97331069092753e+01dB,1.80000000000000e+02°)
4.89778819368445e+02	(7.65703729226988e+00dB,-1.04418249317341e+02°)	(1.97331069092753e+01dB,1.80000000000000e+02°)
5.01187233627271e+02	(7.84436580238735e+00dB,-1.04739626109664e+02°)	(1.97331069092753e+01dB,1.80000000000000e+02°)
5.12861383991364e+02	(8.03113663126312e+00dB,-1.05067509616832e+02°)	(1.97331069092753e+01dB,1.80000000000000e+02°)
5.24807460249771e+02	(8.21732704455340e+00dB,-1.05401987749715e+02°)	(1.97331069092753e+01dB,1.80000000000000e+02°)
5.37031796370251e+02	(8.40291354262583e+00dB,-1.05743146626061e+02°)	(1.97331069092753e+01dB,1.80000000000000e+02°)
5.49540873857623e+02	(8.58787184919328e+00dB,-1.06091070330188e+02°)	(1.97331069092753e+01dB,1.80000000000000e+02°)
5.62341325190348e+02	(8.77217690117470e+00dB,-1.06445840660518e+02°)	(1.97331069092753e+01dB,1.80000000000000e+02°)
5.75439937337155e+02	(8.95580283993622e+00dB,-1.06807536864879e+02°)	(1.97331069092753e+01dB,-1.80000000000000e+02°)
5.88843655355587e+02	(9.13872300407367e+00dB,-1.07176235363581e+02°)	(1.97331069092753e+01dB,1.80000000000000e+02°)
6.02559586074356e+02	(9.32090992390597e+00dB,-1.07552009460330e+02°)	(1.97331069092753e+01dB,1.80000000000000e+02°)
6.16595001861481e+02	(9.50233531785590e+00dB,-1.07934929041112e+02°)	(1.97331069092753e+01dB,1.80000000000000e+02°)
6.30957344480192e+02	(9.68297009090254e+00dB,-1.08325060261303e+02°)	(1.97331069092753e+01dB,1.80000000000000e+02°)
6.45654229034654e+02	(9.86278433529545e+00dB,-1.08722465221305e+02°)	(1.97331069092753e+01dB,1.80000000000000e+02°)
6.60693448007594e+02	(1.00417473337266e+01dB,-1.09127201631164e+02°)	(1.97331069092753e+01dB,1.80000000000000e+02°)
6.76082975391980e+02	(1.02198275651610e+01dB,-1.09539322464691e+02°)	(1.97331069092753e+01dB,1.80000000000000e+02°)
6.91830970918935e+02	(1.03969927135294e+01dB,-1.09958875603768e+02°)	(1.97331069092753e+01dB,1.80000000000000e+02°)
7.07945784384136e+02	(1.05732096794899e+01dB,-1.10385903473616e+02°)	(1.97331069092753e+01dB,-1.80000000000000e+02°)
7.24435960074988e+02	(1.07484445954662e+01dB,-1.10820442669977e+02°)	(1.97331069092753e+01dB,-1.80000000000000e+02°)
7.41310241300916e+02	(1.09226628441655e+01dB,-1.11262523579263e+02°)	(1.97331069092753e+01dB,-1.80000000000000e+02°)
7.58577575029182e+02	(1.10958290807824e+01dB,-1.11712169992914e+02°)	(1.97331069092753e+01dB,-1.80000000000000e+02°)
7.76247116628690e+02	(1.12679072590831e+01dB,-1.12169398717349e+02°)	(1.97331069092753e+01dB,1.80000000000000e+02°)
7.94328234724279e+02	(1.14388606615614e+01dB,-1.12634219181052e+02°)	(1.97331069092753e+01dB,-1.80000000000000e+02°)
8.12830516164097e+02	(1.16086519338455e+01dB,-1.13106633040510e+02°)	(1.97331069092753e+01dB,1.80000000000000e+02°)
8.31763771102669e+02	(1.17772431235216e+01dB,-1.13586633786884e+02°)	(1.97331069092753e+01dB,1.80000000000000e+02°)
8.51138038202374e+02	(1.19445957235257e+01dB,-1.14074206355462e+02°)	(1.97331069092753e+01dB,-1.80000000000000e+02°)
8.70963589956078e+02	(1.21106707202338e+01dB,-1.14569326740110e+02°)	(1.97331069092753e+01dB,1.80000000000000e+02°)
8.91250938133743e+02	(1.22754286463600e+01dB,-1.15071961615096e+02°)	(1.97331069092753e+01dB,1.80000000000000e+02°)
9.12010839355907e+02	(1.24388296387459e+01dB,-1.15582067966822e+02°)	(1.97331069092753e+01dB,1.80000000000000e+02°)
9.33254300796988e+02	(1.26008335010939e+01dB,-1.16099592738137e+02°)	(1.97331069092753e+01dB,-1.80000000000000e+02°)
9.54992586021433e+02	(1.27613997716673e+01dB,-1.16624472488044e+02°)	(1.97331069092753e+01dB,1.80000000000000e+02°)
9.77237220955808e+02	(1.29204877959412e+01dB,-1.17156633069732e+02°)	(1.97331069092753e+01dB,1.80000000000000e+02°)
9.99999999999997e+02	(1.30780568041508e+01dB,-1.17695989329950e+02°)	(1.97331069092753e+01dB,1.80000000000000e+02°)
1.02329299228075e+03	(1.32340659936405e+01dB,-1.18242444832840e+02°)	(1.97331069092753e+01dB,-1.80000000000000e+02°)
1.04712854805090e+03	(1.33884746158723e+01dB,-1.18795891611362e+02°)	(1.97331069092753e+01dB,1.80000000000000e+02°)
1.07151930523760e+03	(1.35412420679037e+01dB,-1.19356209949512e+02°)	(1.97331069092753e+01dB,1.80000000000000e+02°)
1.09647819614318e+03	(1.36923279880962e+01dB,-1.19923268198474e+02°)	(1.97331069092753e+01dB,1.80000000000000e+02°)
1.12201845430196e+03	(1.38416923557635e+01dB,-1.20496922629847e+02°)	(1.97331069092753e+01dB,1.80000000000000e+02°)
1.14815362149688e+03	(1.39892955944155e+01dB,-1.21077017328975e+02°)	(1.97331069092753e+01dB,1.80000000000000e+02°)
1.17489755493953e+03	(1.41350986782021e+01dB,-1.21663384131302e+02°)	(1.97331069092753e+01dB,1.80000000000000e+02°)
1.20226443461741e+03	(1.42790632411069e+01dB,-1.22255842604504e+02°)	(1.97331069092753e+01dB,-1.80000000000000e+02°)
1.23026877081238e+03	(1.44211516883900e+01dB,-1.22854200078943e+02°)	(1.97331069092753e+01dB,1.80000000000000e+02°)
1.25892541179416e+03	(1.45613273097297e+01dB,-1.23458251728751e+02°)	(1.97331069092753e+01dB,1.80000000000000e+02°)
1.28824955169313e+03	(1.46995543934630e+01dB,-1.24067780705532e+02°)	(1.97331069092753e+01dB,1.80000000000000e+02°)
1.31825673855640e+03	(1.48357983412861e+01dB,-1.24682558326369e+02°)	(1.97331069092753e+01dB,1.80000000000000e+02°)
1.34896288259165e+03	(1.49700257827330e+01dB,-1.25302344317415e+02°)	(1.97331069092753e+01dB,1.80000000000000e+02°)
1.38038426460288e+03	(1.51022046887181e+01dB,-1.25926887113960e+02°)	(1.97331069092753e+01dB,1.80000000000000e+02°)
1.41253754462275e+03	(1.52323044834042e+01dB,-1.26555924217398e+02°)	(1.97331069092753e+01dB,-1.80000000000000e+02°)
1.44543977074592e+03	(1.53602961536328e+01dB,-1.27189182609056e+02°)	(1.97331069092753e+01dB,1.80000000000000e+02°)
1.47910838816820e+03	(1.54861523551455e+01dB,-1.27826379220337e+02°)	(1.97331069092753e+01dB,1.80000000000000e+02°)
1.51356124843620e+03	(1.56098475148198e+01dB,-1.28467221458112e+02°)	(1.97331069092753e+01dB,1.80000000000000e+02°)
1.54881661891248e+03	(1.57313579281482e+01dB,-1.29111407783767e+02°)	(1.97331069092753e+01dB,1.80000000000000e+02°)
1.58489319246111e+03	(1.58506618512048e+01dB,-1.29758628343780e+02°)	(1.97331069092753e+01dB,-1.80000000000000e+02°)
1.62181009735892e+03	(1.59677395863677e+01dB,-1.30408565649166e+02°)	(1.97331069092753e+01dB,1.80000000000000e+02°)
1.65958690743755e+03	(1.60825735610991e+01dB,-1.31060895300612e+02°)	(1.97331069092753e+01dB,1.80000000000000e+02°)
1.69824365246174e+03	(1.61951483991292e+01dB,-1.31715286755652e+02°)	(1.97331069092753e+01dB,1.80000000000000e+02°)
1.73780082874937e+03	(1.63054509834411e+01dB,-1.32371404133718e+02°)	(1.97331069092753e+01dB,1.80000000000000e+02°)
1.77827941003892e+03	(1.64134705105166e+01dB,-1.33028907054535e+02°)	(1.97331069092753e+01dB,-1.80000000000000e+02°)
1.81970085860998e+03	(1.65191985353710e+01dB,-1.33687451504893e+02°)	(1.97331069092753e+01dB,1.80000000000000e+02°)
1.86208713666286e+03	(1.66226290069797e+01dB,-1.34346690728530e+02°)	(1.97331069092753e+01dB,1.80000000000000e+02°)
1.90546071796324e+03	(1.67237582937835e+01dB,-1.35006276133579e+02°)	(1.97331069092753e+01dB,1.80000000000000e+02°)
1.94984459975804e+03	(1.68225851990438e+01dB,-1.35665858211821e+02°)	(1.97331069092753e+01dB,-1.80000000000000e+02°)
1.99526231496887e+03	(1.69191109659113e+01dB,-1.36325087463848e+02°)	(1.97331069092753e+01dB,1.80000000000000e+02°)
2.04173794466952e+03	(1.70133392721607e+01dB,-1.36983615324173e+02°)	(1.97331069092753e+01dB,1.80000000000000e+02°)
2.08929613085403e+03	(1.71052762146408e+01dB,-1.37641095080306e+02°)	(1.97331069092753e+01dB,1.80000000000000e+02°)
2.13796208950222e+03	(1.71949302835786e+01dB,-1.38297182779928e+02°)	(1.97331069092753e+01dB,-1.80000000000000e+02°)
2.18776162394954e+03	(1.72823123269656e+01dB,-1.38951538120380e+02°)	(1.97331069092753e+01dB,1.80000000000000e+02°)
2.23872113856833e+03	(1.73674355053446e+01dB,-1.39603825314947e+02°)	(1.97331069092753e+01dB,1.80000000000000e+02°)
2.29086765276776e+03	(1.74503152373929e+01dB,-1.40253713930657e+02°)	(1.97331069092753e+01dB,1.80000000000000e+02°)
2.34422881531991e+03	(1.75309691367757e+01dB,-1.40900879692663e+02°)	(1.97331069092753e+01dB,1.80000000000000e+02°)
2.39883291901948e+03	(1.76094169408121e+01dB,-1.41545005250643e+02°)	(1.97331069092753e+01dB,1.80000000000000e+02°)
2.45470891568502e+03	(1.76856804315569e+01dB,-1.42185780903108e+02°)	(1.97331069092753e+01dB,1.80000000000000e+02°)
2.51188643150957e+03	(1.77597833499520e+01dB,-1.42822905275943e+02°)	(1.97331069092753e+01dB,1.80000000000000e+02°)
2.57039578276885e+03	(1.78317513037492e+01dB,-1.43456085952021e+02°)	(1.97331069092753e+01dB,1.80000000000000e+02°)
2.63026799189537e+03	(1.79016116699319e+01dB,-1.44085040049253e+02°)	(1.97331069092753e+01dB,1.80000000000000e+02°)
2.69153480392690e+03	(1.79693934923977e+01dB,-1.44709494744942e+02°)	(1.97331069092753e+01dB,1.80000000000000e+02°)
2.75422870333815e+03	(1.80351273756679e+01dB,-1.45329187744859e+02°)	(1.97331069092753e+01dB,-1.80000000000000e+02°)
2.81838293126444e+03	(1.80988453754034e+01dB,-1.45943867695996e+02°)	(1.97331069092753e+01dB,-1.80000000000000e+02°)
2.88403150312659e+03	(1.81605808864987e+01dB,-1.46553294542447e+02°)	(1.97331069092753e+01dB,1.80000000000000e+02°)
2.95120922666637e+03	(1.82203685295139e+01dB,-1.47157239824397e+02°)	(1.97331069092753e+01dB,1.80000000000000e+02°)
3.01995172040200e+03	(1.82782440361853e+01dB,-1.47755486920648e+02°)	(1.97331069092753e+01dB,1.80000000000000e+02°)
3.09029543251358e+03	(1.83342441347282e+01dB,-1.48347831235570e+02°)	(1.97331069092753e+01dB,1.80000000000000e+02°)
3.16227766016836e+03	(1.83884064356102e+01dB,-1.48934080331798e+02°)	(1.97331069092753e+01dB,1.80000000000000e+02°)
3.23593656929627e+03	(1.84407693184377e+01dB,-1.49514054010321e+02°)	(1.97331069092753e+01dB,1.80000000000000e+02°)
3.31131121482590e+03	(1.84913718205500e+01dB,-1.50087584340001e+02°)	(1.97331069092753e+01dB,1.80000000000000e+02°)
3.38844156139201e+03	(1.85402535278738e+01dB,-1.50654515638810e+02°)	(1.97331069092753e+01dB,-1.80000000000000e+02°)
3.46736850452530e+03	(1.85874544685362e+01dB,-1.51214704409333e+02°)	(1.97331069092753e+01dB,1.80000000000000e+02°)
3.54813389233574e+03	(1.86330150096853e+01dB,-1.51768019231318e+02°)	(1.97331069092753e+01dB,1.80000000000000e+02°)
3.63078054770100e+03	(1.86769757579146e+01dB,-1.52314340614156e+02°)	(1.97331069092753e+01dB,1.80000000000000e+02°)
3.71535229097171e+03	(1.87193774636320e+01dB,-1.52853560812371e+02°)	(1.97331069092753e+01dB,-1.80000000000000e+02°)
3.80189396320559e+03	(1.87602609296645e+01dB,-1.53385583607211e+02°)	(1.97331069092753e+01dB,1.80000000000000e+02°)
3.89045144994279e+03	(1.87996669243378e+01dB,-1.53910324057526e+02°)	(1.97331069092753e+01dB,1.80000000000000e+02°)
3.98107170553495e+03	(1.88376360992166e+01dB,-1.54427708223104e+02°)	(1.97331069092753e+01dB,1.80000000000000e+02°)
4.07380277804111e+03	(1.88742089116490e+01dB,-1.54937672863609e+02°)	(1.97331069092753e+01dB,1.80000000000000e+02°)
4.16869383470333e+03	(1.89094255522094e+01dB,-1.55440165116237e+02°)	(1.97331069092753e+01dB,1.80000000000000e+02°)
4.26579518801591e+03	(1.89433258770931e+01dB,-1.55935142155103e+02°)	(1.97331069092753e+01dB,1.80000000000000e+02°)
4.36515832240164e+03	(1.89759493454769e+01dB,-1.56422570835289e+02°)	(1.97331069092753e+01dB,1.80000000000000e+02°)
4.46683592150961e+03	(1.90073349618240e+01dB,-1.56902427324365e+02°)	(1.97331069092753e+01dB,1.80000000000000e+02°)
4.57088189614873e+03	(1.90375212230777e+01dB,-1.57374696724046e+02°)	(1.97331069092753e+01dB,-1.80000000000000e+02°)
4.67735141287196e+03	(1.90665460706619e+01dB,-1.57839372684527e+02°)	(1.97331069092753e+01dB,1.80000000000000e+02°)
4.78630092322636e+03	(1.90944468471779e+01dB,-1.58296457013864e+02°)	(1.97331069092753e+01dB,1.80000000000000e+02°)
4.89778819368444e+03	(1.91212602576655e+01dB,-1.58745959284612e+02°)	(1.97331069092753e+01dB,1.80000000000000e+02°)
5.01187233627270e+03	(1.91470223352794e+01dB,-1.59187896439767e+02°)	(1.97331069092753e+01dB,1.80000000000000e+02°)
