time	V(N001,N002)	V(N001,Vin)	V(vin)	V(n002)
0.000000000000000e+00	0.000000e+00	0.000000e+00	0.000000e+00	0.000000e+00
8.158344775991160e-08	5.977283e-06	3.278636e-09	2.563021e-04	2.503281e-04
1.631668955198232e-07	2.068938e-05	7.412567e-10	5.126040e-04	4.919154e-04
2.447503432797348e-07	4.413630e-05	-7.612137e-09	7.689056e-04	7.247617e-04
3.263337910396464e-07	7.631804e-05	-2.178154e-08	1.025207e-03	9.488672e-04
4.079172387995580e-07	1.172346e-04	-4.176697e-08	1.281508e-03	1.164232e-03
4.895006865594696e-07	1.668860e-04	-6.756840e-08	1.537809e-03	1.370856e-03
5.710841343193810e-07	2.252721e-04	-9.918585e-08	1.794110e-03	1.568738e-03
7.224295649908358e-07	3.522306e-04	-1.974404e-07	2.269572e-03	1.917144e-03
9.091095682095636e-07	5.421788e-04	-3.855675e-07	2.856036e-03	2.313472e-03
1.155009189178667e-06	8.436595e-04	-7.697381e-07	3.628537e-03	2.784107e-03
1.467040879572749e-06	1.300474e-03	-1.526438e-06	4.608780e-03	3.306780e-03
1.881562868534861e-06	2.017306e-03	-3.086403e-06	5.910967e-03	3.890574e-03
2.425403571642284e-06	3.112564e-03	-6.265938e-06	7.619335e-03	4.500506e-03
3.168039299063541e-06	4.824306e-03	-1.302641e-05	9.952032e-03	5.114699e-03
4.193864499430216e-06	7.471572e-03	-2.764072e-05	1.317389e-02	5.674677e-03
5.684979295393391e-06	1.166571e-02	-6.100722e-05	1.785609e-02	6.129375e-03
7.875428199608446e-06	1.817538e-02	-1.370907e-04	2.473129e-02	6.418820e-03
1.093648816227886e-05	2.750626e-02	-3.024749e-04	3.433096e-02	6.522226e-03
2.063591771660386e-05	5.703898e-02	-1.200318e-03	6.464815e-02	6.408852e-03
3.040154271660386e-05	8.601816e-02	-2.694800e-03	9.492949e-02	6.216530e-03
4.504998021660385e-05	1.277151e-01	-6.041229e-03	1.396463e-01	5.890033e-03
5.969841771660384e-05	1.670112e-01	-1.065020e-02	1.831810e-01	5.519676e-03
7.434685521660386e-05	2.036144e-01	-1.644224e-02	2.251651e-01	5.108408e-03
8.899529271660387e-05	2.372545e-01	-2.332906e-02	2.652431e-01	4.659531e-03
1.036437302166039e-04	2.676847e-01	-3.121433e-02	3.030757e-01	4.176671e-03
1.182921677166039e-04	2.946846e-01	-3.999445e-02	3.383428e-01	3.663747e-03
1.329406052166039e-04	3.180615e-01	-4.955932e-02	3.707457e-01	3.124939e-03
1.475890427166039e-04	3.376522e-01	-5.979338e-02	4.000102e-01	2.564649e-03
1.622374802166039e-04	3.533246e-01	-7.057646e-02	4.258886e-01	1.987466e-03
1.761883730737468e-04	3.644855e-01	-8.151900e-02	4.474203e-01	1.415798e-03
1.901392659308897e-04	3.719480e-01	-9.246200e-02	4.652578e-01	8.478950e-04
2.040901587880325e-04	3.757121e-01	-1.034054e-01	4.794013e-01	2.837561e-04
2.180410516451754e-04	3.757780e-01	-1.143493e-01	4.898507e-01	-2.766183e-04
2.319919445023183e-04	3.721455e-01	-1.252937e-01	4.966060e-01	-8.332282e-04
2.459428373594611e-04	3.648148e-01	-1.362385e-01	4.996672e-01	-1.386074e-03
2.598937302166040e-04	3.537857e-01	-1.471837e-01	4.990342e-01	-1.935155e-03
2.731470784308897e-04	3.397709e-01	-1.571645e-01	4.944982e-01	-2.437229e-03
2.864004266451755e-04	3.231251e-01	-1.665226e-01	4.867358e-01	-2.911936e-03
2.996537748594612e-04	3.038481e-01	-1.752580e-01	4.757468e-01	-3.359276e-03
3.129071230737469e-04	2.819400e-01	-1.833707e-01	4.615315e-01	-3.779249e-03
3.261604712880327e-04	2.574009e-01	-1.908607e-01	4.440897e-01	-4.171854e-03
3.394138195023184e-04	2.302306e-01	-1.977280e-01	4.234215e-01	-4.537093e-03
3.526671677166041e-04	2.004291e-01	-2.039726e-01	3.995268e-01	-4.874965e-03
3.673156052166041e-04	1.657267e-01	-2.096768e-01	3.702052e-01	-5.198397e-03
3.819640427166041e-04	1.289587e-01	-2.142658e-01	3.377497e-01	-5.474811e-03
3.966124802166041e-04	9.045674e-02	-2.176803e-01	3.024351e-01	-5.701961e-03
4.112609177166041e-04	5.056654e-02	-2.198719e-01	2.645604e-01	-5.878014e-03
4.210265427166042e-04	2.337770e-02	-2.206344e-01	2.380458e-01	-5.966283e-03
4.259093552166042e-04	9.644982e-03	-2.208027e-01	2.244461e-01	-6.001565e-03
4.307921677166042e-04	-4.161819e-03	-2.208279e-01	2.106352e-01	-6.030903e-03
4.454406052166042e-04	-4.588978e-02	-2.200388e-01	1.680660e-01	-6.083036e-03
4.524160516451756e-04	-6.594347e-02	-2.192016e-01	1.471694e-01	-6.088729e-03
4.593914980737470e-04	-8.589606e-02	-2.180708e-01	1.260925e-01	-6.082279e-03
4.663669445023184e-04	-1.057476e-01	-2.166464e-01	1.048351e-01	-6.063686e-03
4.733423909308899e-04	-1.254980e-01	-2.149283e-01	8.339735e-02	-6.032950e-03
4.803178373594613e-04	-1.451473e-01	-2.129165e-01	6.177913e-02	-5.990071e-03
4.872932837880328e-04	-1.646955e-01	-2.106111e-01	3.998049e-02	-5.935048e-03
4.942687302166042e-04	-1.841427e-01	-2.080120e-01	1.800142e-02	-5.867883e-03
4.977564534308899e-04	-1.937412e-01	-2.066060e-01	7.034933e-03	-5.829910e-03
5.012441766451756e-04	-2.032633e-01	-2.051305e-01	-3.921796e-03	-5.789063e-03
5.047318998594613e-04	-2.127089e-01	-2.035855e-01	-1.486876e-02	-5.745344e-03
5.082196230737471e-04	-2.220781e-01	-2.019709e-01	-2.580597e-02	-5.698751e-03
5.117073462880328e-04	-2.313709e-01	-2.002867e-01	-3.673341e-02	-5.649284e-03
5.151950695023185e-04	-2.405872e-01	-1.985330e-01	-4.765110e-02	-5.596945e-03
5.186827927166042e-04	-2.497271e-01	-1.967098e-01	-5.855902e-02	-5.541732e-03
5.277508730737471e-04	-2.731961e-01	-1.916181e-01	-8.696173e-02	-5.383700e-03
5.368189534308899e-04	-2.957758e-01	-1.861241e-01	-1.148607e-01	-5.208993e-03
5.458870337880328e-04	-3.174659e-01	-1.802276e-01	-1.422559e-01	-5.017610e-03
5.549551141451756e-04	-3.382666e-01	-1.739288e-01	-1.691474e-01	-4.809551e-03
5.640231945023185e-04	-3.581779e-01	-1.672277e-01	-1.955351e-01	-4.584816e-03
5.730912748594614e-04	-3.771997e-01	-1.601241e-01	-2.214190e-01	-4.343404e-03
5.821593552166042e-04	-3.953321e-01	-1.526182e-01	-2.467992e-01	-4.085317e-03
5.968077927166043e-04	-4.223558e-01	-1.395897e-01	-2.863972e-01	-3.631100e-03
6.114562302166043e-04	-4.457745e-01	-1.260527e-01	-3.228769e-01	-3.155059e-03
6.261046677166043e-04	-4.655882e-01	-1.120072e-01	-3.562382e-01	-2.657193e-03
6.407531052166043e-04	-4.817969e-01	-9.745318e-02	-3.864812e-01	-2.137503e-03
6.554015427166043e-04	-4.944005e-01	-8.239065e-02	-4.136059e-01	-1.595989e-03
6.700499802166043e-04	-5.033992e-01	-6.681961e-02	-4.376122e-01	-1.032650e-03
6.846984177166043e-04	-5.087928e-01	-5.074006e-02	-4.585002e-01	-4.474861e-04
6.979517659308900e-04	-5.098377e-01	-3.614009e-02	-4.736123e-01	8.531932e-05
7.112051141451758e-04	-5.077010e-01	-2.178188e-02	-4.853093e-01	6.097530e-04
7.244584623594616e-04	-5.023827e-01	-7.665441e-03	-4.935914e-01	1.125815e-03
7.377118105737473e-04	-4.938828e-01	6.209238e-03	-4.984585e-01	1.633505e-03
7.509651587880330e-04	-4.822013e-01	1.984215e-02	-4.999106e-01	2.132824e-03
7.642185070023187e-04	-4.673382e-01	3.323331e-02	-4.979477e-01	2.623770e-03
7.774718552166044e-04	-4.492935e-01	4.638270e-02	-4.925699e-01	3.106345e-03
7.914227480737473e-04	-4.268027e-01	5.959220e-02	-4.828044e-01	3.590515e-03
8.053736409308901e-04	-4.017974e-01	7.190360e-02	-4.696608e-01	4.040288e-03
8.193245337880331e-04	-3.742776e-01	8.331690e-02	-4.531388e-01	4.455663e-03
8.332754266451759e-04	-3.442432e-01	9.383210e-02	-4.332387e-01	4.836640e-03
8.472263195023188e-04	-3.116943e-01	1.034492e-01	-4.099602e-01	5.183219e-03
8.611772123594617e-04	-2.766308e-01	1.121682e-01	-3.833036e-01	5.495400e-03
8.751281052166045e-04	-2.390528e-01	1.199891e-01	-3.532687e-01	5.773184e-03
8.834986409308902e-04	-2.158922e-01	1.240553e-01	-3.340320e-01	5.915550e-03
8.918691766451759e-04	-1.923690e-01	1.276884e-01	-3.140162e-01	6.041137e-03
9.002397123594617e-04	-1.684830e-01	1.308885e-01	-2.932215e-01	6.149946e-03
9.086102480737474e-04	-1.442342e-01	1.336555e-01	-2.716478e-01	6.241978e-03
9.169807837880331e-04	-1.196228e-01	1.359896e-01	-2.492951e-01	6.317232e-03
9.253513195023188e-04	-9.464856e-02	1.378905e-01	-2.261634e-01	6.375707e-03
9.337218552166046e-04	-6.931163e-02	1.393584e-01	-2.022527e-01	6.417405e-03
9.372095784308903e-04	-5.876991e-02	1.398314e-01	-1.921720e-01	6.429390e-03
9.406973016451760e-04	-4.822355e-02	1.402261e-01	-1.820113e-01	6.438330e-03
9.441850248594617e-04	-3.767256e-02	1.405424e-01	-1.717707e-01	6.444225e-03
9.476727480737475e-04	-2.711692e-02	1.407802e-01	-1.614501e-01	6.447077e-03
9.511604712880332e-04	-1.655665e-02	1.409398e-01	-1.510495e-01	6.446884e-03
9.546481945023189e-04	-5.991732e-03	1.410209e-01	-1.405690e-01	6.443646e-03
9.581359177166046e-04	4.577822e-03	1.410237e-01	-1.300085e-01	6.437365e-03
9.727843552166046e-04	4.871942e-02	1.401816e-01	-8.508439e-02	6.377801e-03
9.769696230737474e-04	6.125920e-02	1.396873e-01	-7.207720e-02	6.350922e-03
9.811548909308902e-04	7.372086e-02	1.390834e-01	-5.904276e-02	6.319779e-03
9.853401587880330e-04	8.610440e-02	1.383698e-01	-4.598108e-02	6.284373e-03
9.895254266451756e-04	9.840981e-02	1.375466e-01	-3.289214e-02	6.244703e-03
9.937106945023184e-04	1.106371e-01	1.366138e-01	-1.977595e-02	6.200769e-03
9.978959623594612e-04	1.227862e-01	1.355713e-01	-6.632503e-03	6.152572e-03
1.002081230216604e-03	1.348573e-01	1.344192e-01	6.538191e-03	6.100112e-03
1.007661587359461e-03	1.508023e-01	1.327121e-01	2.411373e-02	6.023514e-03
1.013241944502318e-03	1.664909e-01	1.308246e-01	4.160618e-02	5.939902e-03
1.018822301645175e-03	1.819231e-01	1.287569e-01	5.901553e-02	5.849277e-03
1.024402658788032e-03	1.970989e-01	1.265087e-01	7.634178e-02	5.751638e-03
1.029983015930889e-03	2.120182e-01	1.240803e-01	9.358493e-02	5.646984e-03
1.035563373073746e-03	2.266811e-01	1.214714e-01	1.107450e-01	5.535317e-03
1.041143730216603e-03	2.410876e-01	1.186823e-01	1.278220e-01	5.416636e-03
1.052304444502317e-03	2.691226e-01	1.125194e-01	1.617597e-01	5.156515e-03
1.063465158788031e-03	2.954520e-01	1.058103e-01	1.945168e-01	4.875194e-03
1.074625873073745e-03	3.200759e-01	9.855500e-02	2.260935e-01	4.572673e-03
1.085786587359459e-03	3.429942e-01	9.075347e-02	2.564897e-01	4.248952e-03
1.096947301645173e-03	3.642071e-01	8.240572e-02	2.857054e-01	3.904031e-03
1.108108015930887e-03	3.837144e-01	7.351175e-02	3.137406e-01	3.537910e-03
1.119268730216601e-03	4.015162e-01	6.407157e-02	3.405952e-01	3.150589e-03
1.132522078430887e-03	4.198369e-01	5.225605e-02	3.702480e-01	2.667179e-03
1.145775426645172e-03	4.349531e-01	4.019428e-02	3.969333e-01	2.174461e-03
1.159028774859458e-03	4.468649e-01	2.788627e-02	4.206510e-01	1.672433e-03
1.172282123073743e-03	4.555722e-01	1.533200e-02	4.414013e-01	1.161097e-03
1.185535471288029e-03	4.610751e-01	2.531482e-03	4.591841e-01	6.404520e-04
1.198788819502314e-03	4.633736e-01	-1.051528e-02	4.739994e-01	1.104979e-04
1.212042167716599e-03	4.624676e-01	-2.380830e-02	4.858472e-01	-4.287651e-04
1.226690605216599e-03	4.571800e-01	-3.844867e-02	4.946064e-01	-1.022320e-03
1.241339042716599e-03	4.482067e-01	-5.257478e-02	4.991864e-01	-1.595172e-03
1.255987480216599e-03	4.355478e-01	-6.618665e-02	4.995871e-01	-2.147320e-03
1.270635917716598e-03	4.192032e-01	-7.928427e-02	4.958087e-01	-2.678765e-03
1.285284355216598e-03	3.991730e-01	-9.186764e-02	4.878511e-01	-3.189507e-03
1.299932792716598e-03	3.754570e-01	-1.039368e-01	4.757142e-01	-3.679546e-03
1.314581230216597e-03	3.480555e-01	-1.154916e-01	4.593982e-01	-4.148882e-03
1.326439489145168e-03	3.235595e-01	-1.240658e-01	4.431275e-01	-4.497784e-03
1.338297748073740e-03	2.975999e-01	-1.319070e-01	4.246894e-01	-4.817534e-03
1.350156007002311e-03	2.701764e-01	-1.390154e-01	4.040837e-01	-5.108130e-03
1.362014265930882e-03	2.412893e-01	-1.453909e-01	3.813106e-01	-5.369573e-03
1.373872524859453e-03	2.109383e-01	-1.510336e-01	3.563700e-01	-5.601862e-03
1.385730783788024e-03	1.791236e-01	-1.559433e-01	3.292619e-01	-5.804999e-03
1.397589042716596e-03	1.458451e-01	-1.601202e-01	2.999864e-01	-5.978982e-03
1.403866944502310e-03	1.280170e-01	-1.619512e-01	2.839122e-01	-6.055997e-03
1.410144846288024e-03	1.100475e-01	-1.635380e-01	2.674622e-01	-6.123315e-03
1.416422748073738e-03	9.193648e-02	-1.648805e-01	2.506361e-01	-6.180936e-03
1.422700649859452e-03	7.368400e-02	-1.659789e-01	2.334340e-01	-6.228859e-03
1.428978551645166e-03	5.529005e-02	-1.668330e-01	2.158560e-01	-6.267086e-03
1.435256453430881e-03	3.675462e-02	-1.674430e-01	1.979020e-01	-6.295616e-03
1.441534355216595e-03	1.807773e-02	-1.678087e-01	1.795720e-01	-6.314448e-03
1.461065605216594e-03	-3.993173e-02	-1.673407e-01	1.210997e-01	-6.309299e-03
1.465948417716594e-03	-5.442608e-02	-1.668453e-01	1.061263e-01	-6.292993e-03
1.470831230216594e-03	-6.884236e-02	-1.662017e-01	9.108854e-02	-6.270802e-03
1.475714042716594e-03	-8.318057e-02	-1.654098e-01	7.598650e-02	-6.242726e-03
1.480596855216594e-03	-9.744071e-02	-1.644696e-01	6.082014e-02	-6.208764e-03
1.485479667716594e-03	-1.116228e-01	-1.633812e-01	4.558946e-02	-6.168917e-03
1.490362480216594e-03	-1.257268e-01	-1.621444e-01	3.029445e-02	-6.123184e-03
1.495245292716593e-03	-1.397527e-01	-1.607594e-01	1.493513e-02	-6.071566e-03
1.509893730216593e-03	-1.809276e-01	-1.557483e-01	-3.106206e-02	-5.882730e-03
1.517566721288022e-03	-2.020441e-01	-1.525947e-01	-5.521225e-02	-5.762829e-03
1.525239712359450e-03	-2.225905e-01	-1.491236e-01	-7.909720e-02	-5.630325e-03
1.532912703430878e-03	-2.425669e-01	-1.453352e-01	-1.027169e-01	-5.485218e-03
1.540585694502307e-03	-2.619733e-01	-1.412295e-01	-1.260714e-01	-5.327508e-03
1.548258685573735e-03	-2.808097e-01	-1.368063e-01	-1.491606e-01	-5.157194e-03
1.555931676645163e-03	-2.990761e-01	-1.320658e-01	-1.719846e-01	-4.974276e-03
1.563604667716592e-03	-3.167724e-01	-1.270078e-01	-1.945433e-01	-4.778755e-03
1.576858015930877e-03	-3.458090e-01	-1.174677e-01	-2.327504e-01	-4.409136e-03
1.590111364145163e-03	-3.720883e-01	-1.073391e-01	-2.687653e-01	-4.016078e-03
1.603364712359448e-03	-3.956104e-01	-9.662181e-02	-3.025881e-01	-3.599579e-03
1.616618060573734e-03	-4.163752e-01	-8.531596e-02	-3.342189e-01	-3.159640e-03
1.629871408788019e-03	-4.343827e-01	-7.342153e-02	-3.636574e-01	-2.696262e-03
1.643124757002305e-03	-4.496330e-01	-6.093851e-02	-3.909039e-01	-2.209444e-03
1.656378105216590e-03	-4.621260e-01	-4.786691e-02	-4.159583e-01	-1.699186e-03
1.670328998073733e-03	-4.714959e-01	-3.372860e-02	-4.389143e-01	-1.146910e-03
1.684279890930875e-03	-4.772515e-01	-1.963515e-02	-4.582126e-01	-5.962073e-04
1.698230783788018e-03	-4.793927e-01	-5.586560e-03	-4.738533e-01	-4.707674e-05
1.712181676645160e-03	-4.779196e-01	8.417176e-03	-4.858363e-01	5.004813e-04
1.726132569502303e-03	-4.728320e-01	2.237606e-02	-4.941616e-01	1.046467e-03
1.740083462359445e-03	-4.641301e-01	3.629008e-02	-4.988293e-01	1.590880e-03
1.754034355216588e-03	-4.518138e-01	5.015925e-02	-4.998394e-01	2.133721e-03
1.768682792716588e-03	-4.347088e-01	6.424367e-02	-4.962675e-01	2.685024e-03
1.783331230216587e-03	-4.144618e-01	7.749418e-02	-4.887523e-01	3.203583e-03
1.797979667716587e-03	-3.910727e-01	8.991076e-02	-4.772940e-01	3.689398e-03
1.812628105216587e-03	-3.645415e-01	1.014934e-01	-4.618925e-01	4.142469e-03
1.827276542716586e-03	-3.348684e-01	1.122422e-01	-4.425477e-01	4.562796e-03
1.841924980216586e-03	-3.020532e-01	1.221570e-01	-4.192598e-01	4.950379e-03
1.856573417716586e-03	-2.660960e-01	1.312379e-01	-3.920286e-01	5.305219e-03
1.865641498073728e-03	-2.428694e-01	1.361761e-01	-3.735475e-01	5.497976e-03
1.874709578430871e-03	-2.190632e-01	1.406310e-01	-3.540225e-01	5.671708e-03
1.883777658788014e-03	-1.946774e-01	1.446027e-01	-3.334536e-01	5.826415e-03
1.892845739145156e-03	-1.697119e-01	1.480911e-01	-3.118408e-01	5.962096e-03
1.901913819502299e-03	-1.441667e-01	1.510962e-01	-2.891842e-01	6.078752e-03
1.910981899859442e-03	-1.180419e-01	1.536182e-01	-2.654837e-01	6.176382e-03
1.920049980216584e-03	-9.133739e-02	1.556568e-01	-2.407392e-01	6.254987e-03
1.924235248073727e-03	-7.898328e-02	1.564133e-01	-2.291126e-01	6.283998e-03
1.928420515930870e-03	-6.659793e-02	1.570588e-01	-2.173481e-01	6.308640e-03
1.932605783788013e-03	-5.418134e-02	1.575934e-01	-2.054458e-01	6.328910e-03
1.936791051645155e-03	-4.173351e-02	1.580171e-01	-1.934058e-01	6.344811e-03
1.940976319502298e-03	-2.925443e-02	1.583298e-01	-1.812279e-01	6.356341e-03
1.945161587359441e-03	-1.674412e-02	1.585316e-01	-1.689122e-01	6.363501e-03
1.949346855216584e-03	-4.202558e-03	1.586224e-01	-1.564587e-01	6.366291e-03
1.963995292716584e-03	3.956927e-02	1.580604e-01	-1.121498e-01	6.341382e-03
1.968878105216584e-03	5.413253e-02	1.575683e-01	-9.711466e-02	6.321066e-03
1.973760917716583e-03	6.860867e-02	1.569273e-01	-8.202378e-02	6.294890e-03
1.978643730216583e-03	8.299771e-02	1.561377e-01	-6.687717e-02	6.262852e-03
1.983526542716583e-03	9.729964e-02	1.551994e-01	-5.167482e-02	6.224955e-03
1.988409355216583e-03	1.115145e-01	1.541124e-01	-3.641674e-02	6.181196e-03
1.993292167716583e-03	1.256422e-01	1.528767e-01	-2.110291e-02	6.131577e-03
1.998174980216583e-03	1.396828e-01	1.514922e-01	-5.733343e-03	6.076097e-03
2.002360248073726e-03	1.516029e-01	1.501896e-01	7.437330e-03	6.023972e-03
2.006545515930869e-03	1.633965e-01	1.487841e-01	2.058020e-02	5.967793e-03
2.010730783788011e-03	1.750636e-01	1.472759e-01	3.369526e-02	5.907561e-03
2.014916051645154e-03	1.866040e-01	1.456648e-01	4.678252e-02	5.843277e-03
2.019101319502297e-03	1.980179e-01	1.439509e-01	5.984197e-02	5.774940e-03
2.023286587359440e-03	2.093052e-01	1.421342e-01	7.287361e-02	5.702551e-03
2.027471855216582e-03	2.204660e-01	1.402146e-01	8.587745e-02	5.626108e-03
2.037237480216582e-03	2.460632e-01	1.353039e-01	1.161900e-01	5.430721e-03
2.047003105216582e-03	2.705093e-01	1.299318e-01	1.457946e-01	5.217141e-03
2.056768730216582e-03	2.938041e-01	1.240982e-01	1.746912e-01	4.985369e-03
2.066534355216581e-03	3.159477e-01	1.178033e-01	2.028798e-01	4.735405e-03
2.076299980216581e-03	3.369401e-01	1.110469e-01	2.303604e-01	4.467249e-03
2.086065605216581e-03	3.567813e-01	1.038291e-01	2.571330e-01	4.180901e-03
2.095831230216581e-03	3.754713e-01	9.614995e-02	2.831977e-01	3.876361e-03
2.109782123073723e-03	3.996996e-01	8.438543e-02	3.187241e-01	3.409983e-03
2.123733015930866e-03	4.205228e-01	7.220289e-02	3.512471e-01	2.927125e-03
2.137683908788008e-03	4.379411e-01	5.960233e-02	3.807665e-01	2.427789e-03
2.151634801645151e-03	4.519543e-01	4.658375e-02	4.072825e-01	1.911973e-03
2.165585694502294e-03	4.625625e-01	3.314714e-02	4.307950e-01	1.379678e-03
2.179536587359436e-03	4.697657e-01	1.929252e-02	4.513040e-01	8.309030e-04
2.193487480216579e-03	4.735638e-01	5.019873e-03	4.688096e-01	2.656492e-04
2.206740828430864e-03	4.734193e-01	-8.569593e-03	4.817164e-01	-2.725363e-04
2.219994176645150e-03	4.701063e-01	-2.188448e-02	4.911909e-01	-7.998736e-04
2.233247524859435e-03	4.636246e-01	-3.492478e-02	4.972331e-01	-1.316363e-03
2.246500873073720e-03	4.539745e-01	-4.769050e-02	4.998430e-01	-1.822004e-03
2.259754221288006e-03	4.411557e-01	-6.018163e-02	4.990206e-01	-2.316797e-03
2.273007569502291e-03	4.251685e-01	-7.239819e-02	4.947659e-01	-2.800741e-03
2.286260917716577e-03	4.060126e-01	-8.434016e-02	4.870789e-01	-3.273838e-03
2.299514265930862e-03	3.837403e-01	-9.564657e-02	4.756650e-01	-3.721839e-03
2.312767614145148e-03	3.592694e-01	-1.061333e-01	4.612653e-01	-4.137472e-03
2.326020962359433e-03	3.326000e-01	-1.158004e-01	4.438797e-01	-4.520737e-03
2.339274310573718e-03	3.037320e-01	-1.246478e-01	4.235082e-01	-4.871633e-03
2.352527658788004e-03	2.726655e-01	-1.326756e-01	4.001509e-01	-5.190160e-03
2.365781007002289e-03	2.394004e-01	-1.398837e-01	3.738077e-01	-5.476319e-03
2.379034355216575e-03	2.039367e-01	-1.462721e-01	3.444787e-01	-5.730109e-03
2.386707346288003e-03	1.829150e-01	-1.494403e-01	3.264992e-01	-5.856095e-03
2.394380337359432e-03	1.615918e-01	-1.522497e-01	3.078736e-01	-5.967909e-03
2.402053328430860e-03	1.399673e-01	-1.547003e-01	2.886020e-01	-6.065552e-03
2.409726319502288e-03	1.180412e-01	-1.567921e-01	2.686843e-01	-6.149023e-03
2.417399310573717e-03	9.581375e-02	-1.585250e-01	2.481205e-01	-6.218323e-03
2.425072301645145e-03	7.328483e-02	-1.598992e-01	2.269106e-01	-6.273452e-03
2.432745292716574e-03	5.045447e-02	-1.609145e-01	2.050546e-01	-6.314409e-03
2.447393730216573e-03	6.827743e-03	-1.617977e-01	1.622745e-01	-6.350919e-03
2.462042167716573e-03	-3.686455e-02	-1.613190e-01	1.181208e-01	-6.333631e-03
2.466924980216573e-03	-5.141301e-02	-1.608551e-01	1.031262e-01	-6.315849e-03
2.471807792716573e-03	-6.588008e-02	-1.602425e-01	8.807023e-02	-6.292190e-03
