Freq.	V(Vout)/V(Vin)	V(vout)
1.00000000000000e+02	(1.97331068921300e+01dB,1.79996400000008e+02°)	(-5.87694046603383e+00dB,-9.30084262338445e+01°)
1.02329299228075e+02	(1.97331068913220e+01dB,1.79996316145237e+02°)	(-5.67750285415631e+00dB,-9.30783687119617e+01°)
1.04712854805090e+02	(1.97331068904759e+01dB,1.79996230337236e+02°)	(-5.47809166876967e+00dB,-9.31499308866262e+01°)
1.07151930523761e+02	(1.97331068895899e+01dB,1.79996142530511e+02°)	(-5.27870814780965e+00dB,-9.32231498106644e+01°)
1.09647819614318e+02	(1.97331068886622e+01dB,1.79996052678504e+02°)	(-5.07935358683333e+00dB,-9.32980633520510e+01°)
1.12201845430196e+02	(1.97331068876907e+01dB,1.79995960733575e+02°)	(-4.88002934166571e+00dB,-9.33747102095091e+01°)
1.14815362149688e+02	(1.97331068866734e+01dB,1.79995866646974e+02°)	(-4.68073683116442e+00dB,-9.34531299282368e+01°)
1.17489755493953e+02	(1.97331068856083e+01dB,1.79995770368814e+02°)	(-4.48147754010754e+00dB,-9.35333629157465e+01°)
1.20226443461741e+02	(1.97331068844929e+01dB,1.79995671848048e+02°)	(-4.28225302220960e+00dB,-9.36154504578015e+01°)
1.23026877081238e+02	(1.97331068833249e+01dB,1.79995571032438e+02°)	(-4.08306490327110e+00dB,-9.36994347344345e+01°)
1.25892541179417e+02	(1.97331068821019e+01dB,1.79995467868532e+02°)	(-3.88391488446699e+00dB,-9.37853588360294e+01°)
1.28824955169313e+02	(1.97331068808213e+01dB,1.79995362301629e+02°)	(-3.68480474577978e+00dB,-9.38732667794465e+01°)
1.31825673855641e+02	(1.97331068794803e+01dB,1.79995254275757e+02°)	(-3.48573634958317e+00dB,-9.39632035241701e+01°)
1.34896288259165e+02	(1.97331068780761e+01dB,1.79995143733639e+02°)	(-3.28671164438206e+00dB,-9.40552149884545e+01°)
1.38038426460288e+02	(1.97331068766057e+01dB,1.79995030616665e+02°)	(-3.08773266871539e+00dB,-9.41493480654423e+01°)
1.41253754462275e+02	(1.97331068750660e+01dB,1.79994914864858e+02°)	(-2.88880155522797e+00dB,-9.42456506392283e+01°)
1.44543977074593e+02	(1.97331068734538e+01dB,1.79994796416845e+02°)	(-2.68992053491809e+00dB,-9.43441716008365e+01°)
1.47910838816821e+02	(1.97331068717656e+01dB,1.79994675209823e+02°)	(-2.49109194156736e+00dB,-9.44449608640793e+01°)
1.51356124843621e+02	(1.97331068699978e+01dB,1.79994551179528e+02°)	(-2.29231821636018e+00dB,-9.45480693812617e+01°)
1.54881661891248e+02	(1.97331068681467e+01dB,1.79994424260195e+02°)	(-2.09360191269941e+00dB,-9.46535491586916e+01°)
1.58489319246111e+02	(1.97331068662084e+01dB,1.79994294384532e+02°)	(-1.89494570122593e+00dB,-9.47614532719558e+01°)
1.62181009735893e+02	(1.97331068641787e+01dB,1.79994161483676e+02°)	(-1.69635237504932e+00dB,-9.48718358809144e+01°)
1.65958690743756e+02	(1.97331068620533e+01dB,1.79994025487161e+02°)	(-1.49782485519734e+00dB,-9.49847522443662e+01°)
1.69824365246174e+02	(1.97331068598278e+01dB,1.79993886322880e+02°)	(-1.29936619629184e+00dB,-9.51002587343319e+01°)
1.73780082874937e+02	(1.97331068574975e+01dB,1.79993743917048e+02°)	(-1.10097959245902e+00dB,-9.52184128498990e+01°)
1.77827941003892e+02	(1.97331068550572e+01dB,1.79993598194157e+02°)	(-9.02668383482078e-01dB,-9.53392732305660e+01°)
1.81970085860998e+02	(1.97331068525020e+01dB,1.79993449076944e+02°)	(-7.04436061204145e-01dB,-9.54628996690226e+01°)
1.86208713666287e+02	(1.97331068498264e+01dB,1.79993296486345e+02°)	(-5.06286276189820e-01dB,-9.55893531232944e+01°)
1.90546071796324e+02	(1.97331068470246e+01dB,1.79993140341455e+02°)	(-3.08222844653435e-01dB,-9.57186957281767e+01°)
1.94984459975804e+02	(1.97331068440908e+01dB,1.79992980559483e+02°)	(-1.10249755662261e-01dB,-9.58509908058775e+01°)
1.99526231496888e+02	(1.97331068410188e+01dB,1.79992817055711e+02°)	(8.76288213770745e-02dB,-9.59863028757831e+01°)
2.04173794466953e+02	(1.97331068378020e+01dB,1.79992649743447e+02°)	(2.85408528940736e-01dB,-9.61246976632543e+01°)
2.08929613085404e+02	(1.97331068344335e+01dB,1.79992478533980e+02°)	(4.83084813310347e-01dB,-9.62662421073539e+01°)
2.13796208950223e+02	(1.97331068309064e+01dB,1.79992303336532e+02°)	(6.80652916188049e-01dB,-9.64110043674023e+01°)
2.18776162394955e+02	(1.97331068272129e+01dB,1.79992124058211e+02°)	(8.78107865996168e-01dB,-9.65590538282464e+01°)
2.23872113856834e+02	(1.97331068233455e+01dB,1.79991940603962e+02°)	(1.07544446885383e+00dB,-9.67104611041258e+01°)
2.29086765276777e+02	(1.97331068192957e+01dB,1.79991752876515e+02°)	(1.27265729922307e+00dB,-9.68652980410066e+01°)
2.34422881531992e+02	(1.97331068150551e+01dB,1.79991560776334e+02°)	(1.46974069021745e+00dB,-9.70236377172493e+01°)
2.39883291901949e+02	(1.97331068106146e+01dB,1.79991364201566e+02°)	(1.66668872356650e+00dB,-9.71855544424680e+01°)
2.45470891568503e+02	(1.97331068059649e+01dB,1.79991163047982e+02°)	(1.86349521922981e+00dB,-9.73511237544279e+01°)
2.51188643150958e+02	(1.97331068010960e+01dB,1.79990957208931e+02°)	(2.06015372465512e+00dB,-9.75204224138209e+01°)
2.57039578276886e+02	(1.97331067959977e+01dB,1.79990746575272e+02°)	(2.25665750367548e+00dB,-9.76935283967490e+01°)
2.63026799189538e+02	(1.97331067906591e+01dB,1.79990531035325e+02°)	(2.45299952504127e+00dB,-9.78705208847359e+01°)
2.69153480392691e+02	(1.97331067850689e+01dB,1.79990310474808e+02°)	(2.64917245058371e+00dB,-9.80514802520755e+01°)
2.75422870333816e+02	(1.97331067792152e+01dB,1.79990084776777e+02°)	(2.84516862300753e+00dB,-9.82364880503193e+01°)
2.81838293126445e+02	(1.97331067730857e+01dB,1.79989853821564e+02°)	(3.04098005331154e+00dB,-9.84256269896887e+01°)
2.88403150312660e+02	(1.97331067666673e+01dB,1.79989617486713e+02°)	(3.23659840783714e+00dB,-9.86189809171935e+01°)
2.95120922666638e+02	(1.97331067599463e+01dB,1.79989375646916e+02°)	(3.43201499494616e+00dB,-9.88166347912216e+01°)
3.01995172040201e+02	(1.97331067529087e+01dB,1.79989128173948e+02°)	(3.62722075133107e+00dB,-9.90186746523563e+01°)
3.09029543251358e+02	(1.97331067455394e+01dB,1.79988874936594e+02°)	(3.82220622796239e+00dB,-9.92251875901659e+01°)
3.16227766016837e+02	(1.97331067378227e+01dB,1.79988615800585e+02°)	(4.01696157567979e+00dB,-9.94362617056982e+01°)
3.23593656929628e+02	(1.97331067297424e+01dB,1.79988350628523e+02°)	(4.21147653043592e+00dB,-9.96519860694011e+01°)
3.31131121482590e+02	(1.97331067212813e+01dB,1.79988079279811e+02°)	(4.40574039820413e+00dB,-9.98724506741801e+01°)
3.38844156139202e+02	(1.97331067124214e+01dB,1.79987801610576e+02°)	(4.59974203956381e+00dB,-1.00097746383290e+02°)
3.46736850452531e+02	(1.97331067031440e+01dB,1.79987517473594e+02°)	(4.79346985398004e+00dB,-1.00327964872750e+02°)
3.54813389233575e+02	(1.97331066934293e+01dB,1.79987226718212e+02°)	(4.98691176379722e+00dB,-1.00563198567959e+02°)
3.63078054770101e+02	(1.97331066832568e+01dB,1.79986929190268e+02°)	(5.18005519796976e+00dB,-1.00803540574177e+02°)
3.71535229097172e+02	(1.97331066726049e+01dB,1.79986624732009e+02°)	(5.37288707555666e+00dB,-1.01049084600529e+02°)
3.80189396320560e+02	(1.97331066614509e+01dB,1.79986313182007e+02°)	(5.56539378901041e+00dB,-1.01299924877185e+02°)
3.89045144994280e+02	(1.97331066497713e+01dB,1.79985994375073e+02°)	(5.75756118729531e+00dB,-1.01556156065356e+02°)
3.98107170553496e+02	(1.97331066375413e+01dB,1.79985668142173e+02°)	(5.94937455887463e+00dB,-1.01817873159728e+02°)
4.07380277804112e+02	(1.97331066247348e+01dB,1.79985334310334e+02°)	(6.14081861461089e+00dB,-1.02085171382990e+02°)
4.16869383470335e+02	(1.97331066113249e+01dB,1.79984992702553e+02°)	(6.33187747062891e+00dB,-1.02358146072052e+02°)
4.26579518801592e+02	(1.97331065972829e+01dB,1.79984643137706e+02°)	(6.52253463119679e+00dB,-1.02636892555601e+02°)
4.36515832240165e+02	(1.97331065825791e+01dB,1.79984285430449e+02°)	(6.71277297168574e+00dB,-1.02921506022607e+02°)
4.46683592150962e+02	(1.97331065671824e+01dB,1.79983919391121e+02°)	(6.90257472167624e+00dB,-1.03212081381414e+02°)
4.57088189614874e+02	(1.97331065510601e+01dB,1.79983544825643e+02°)	(7.09192144828420e+00dB,-1.03508713109047e+02°)
4.67735141287197e+02	(1.97331065341779e+01dB,1.79983161535415e+02°)	(7.28079403978802e+00dB,-1.03811495090376e+02°)
4.78630092322637e+02	(1.97331065165001e+01dB,1.79982769317213e+02°)	(7.46917268964450e+00dB,-1.04120520446802e+02°)
4.89778819368445e+02	(1.97331064979892e+01dB,1.79982367963077e+02°)	(7.65703688098902e+00dB,-1.04435881354130e+02°)
5.01187233627271e+02	(1.97331064786059e+01dB,1.79981957260204e+02°)	(7.84436537172339e+00dB,-1.04757668849323e+02°)
5.12861383991364e+02	(1.97331064583091e+01dB,1.79981536990834e+02°)	(8.03113618030259e+00dB,-1.05085972625859e+02°)
5.24807460249771e+02	(1.97331064370557e+01dB,1.79981106932135e+02°)	(8.21732657233973e+00dB,-1.05420880817438e+02°)
5.37031796370251e+02	(1.97331064148007e+01dB,1.79980666856084e+02°)	(8.40291304815740e+00dB,-1.05762479769832e+02°)
5.49540873857623e+02	(1.97331063914968e+01dB,1.79980216529347e+02°)	(8.58787133142125e+00dB,-1.06110853800693e+02°)
5.62341325190348e+02	(1.97331063670946e+01dB,1.79979755713156e+02°)	(8.77217635900081e+00dB,-1.06466084947211e+02°)
5.75439937337155e+02	(1.97331063415425e+01dB,1.79979284163179e+02°)	(8.95580227221042e+00dB,-1.06828252701546e+02°)
5.88843655355587e+02	(1.97331063147860e+01dB,1.79978801629396e+02°)	(9.13872240959176e+00dB,-1.07197433734029e+02°)
6.02559586074356e+02	(1.97331062867686e+01dB,1.79978307855959e+02°)	(9.32090930140696e+00dB,-1.07573701604211e+02°)
6.16595001861481e+02	(1.97331062574308e+01dB,1.79977802581066e+02°)	(9.50233466601938e+00dB,-1.07957126459884e+02°)
6.30957344480192e+02	(1.97331062267103e+01dB,1.79977285536811e+02°)	(9.68296940834588e+00dB,-1.08347774724325e+02°)
6.45654229034654e+02	(1.97331061945420e+01dB,1.79976756449053e+02°)	(9.86278362057084e+00dB,-1.08745708772083e+02°)
6.60693448007594e+02	(1.97331061608577e+01dB,1.79976215037262e+02°)	(1.00417465853181e+01dB,-1.09150986593730e+02°)
6.76082975391980e+02	(1.97331061255858e+01dB,1.79975661014374e+02°)	(1.02198267814810e+01dB,-1.09563661450142e+02°)
6.91830970918935e+02	(1.97331060886517e+01dB,1.79975094086641e+02°)	(1.03969918929156e+01dB,-1.09983781516949e+02°)
7.07945784384136e+02	(1.97331060499769e+01dB,1.79974513953469e+02°)	(1.05732088202018e+01dB,-1.10411389519966e+02°)
7.24435960074988e+02	(1.97331060094794e+01dB,1.79973920307265e+02°)	(1.07484436956809e+01dB,-1.10846522362528e+02°)
7.41310241300916e+02	(1.97331059670733e+01dB,1.79973312833270e+02°)	(1.09226619019746e+01dB,-1.11289210745805e+02°)
7.58577575029182e+02	(1.97331059226687e+01dB,1.79972691209394e+02°)	(1.10958280941874e+01dB,-1.11739478783328e+02°)
7.76247116628690e+02	(1.97331058761714e+01dB,1.79972055106045e+02°)	(1.12679062259912e+01dB,-1.12197343611110e+02°)
7.94328234724279e+02	(1.97331058274827e+01dB,1.79971404185953e+02°)	(1.14388595797813e+01dB,-1.12662814994902e+02°)
8.12830516164097e+02	(1.97331057764994e+01dB,1.79970738103992e+02°)	(1.16086508010826e+01dB,-1.13135894936318e+02°)
8.31763771102669e+02	(1.97331057231134e+01dB,1.79970056506996e+02°)	(1.17772419373732e+01dB,-1.13616577279684e+02°)
8.51138038202374e+02	(1.97331056672113e+01dB,1.79969359033576e+02°)	(1.19445944814757e+01dB,-1.14104847321678e+02°)
8.70963589956078e+02	(1.97331056086746e+01dB,1.79968645313923e+02°)	(1.21106694196476e+01dB,-1.14600681425977e+02°)
8.91250938133743e+02	(1.97331055473792e+01dB,1.79967914969613e+02°)	(1.22754272844790e+01dB,-1.15104046645270e+02°)
9.12010839355907e+02	(1.97331054831950e+01dB,1.79967167613410e+02°)	(1.24388282126813e+01dB,-1.15614900353196e+02°)
9.33254300796988e+02	(1.97331054159859e+01dB,1.79966402849056e+02°)	(1.26008320078208e+01dB,-1.16133189888862e+02°)
9.54992586021433e+02	(1.97331053456094e+01dB,1.79965620271064e+02°)	(1.27613982080183e+01dB,-1.16658852216758e+02°)
9.77237220955808e+02	(1.97331052719161e+01dB,1.79964819464502e+02°)	(1.29204861585995e+01dB,-1.17191813605004e+02°)
9.99999999999997e+02	(1.97331051947498e+01dB,1.79964000004773e+02°)	(1.30780550896434e+01dB,-1.17731989324948e+02°)
1.02329299228075e+03	(1.97331051139467e+01dB,1.79963161457391e+02°)	(1.32340641983308e+01dB,-1.18279283375217e+02°)
1.04712854805090e+03	(1.97331050293355e+01dB,1.79962303377747e+02°)	(1.33884727359520e+01dB,-1.18833588233381e+02°)
1.07151930523760e+03	(1.97331049407366e+01dB,1.79961425310878e+02°)	(1.35412400993853e+01dB,-1.19394784638397e+02°)
1.09647819614318e+03	(1.97331048479623e+01dB,1.79960526791223e+02°)	(1.36923259268042e+01dB,-1.19962741407010e+02°)
1.12201845430196e+03	(1.97331047508156e+01dB,1.79959607342377e+02°)	(1.38416901973255e+01dB,-1.20537315287227e+02°)
1.14815362149688e+03	(1.97331046490906e+01dB,1.79958666476838e+02°)	(1.39892933342533e+01dB,-1.21118350851892e+02°)
1.17489755493953e+03	(1.97331045425714e+01dB,1.79957703695748e+02°)	(1.41350963115214e+01dB,-1.21705680435306e+02°)
1.20226443461741e+03	(1.97331044310321e+01dB,1.79956718488630e+02°)	(1.42790607628877e+01dB,-1.22299124115623e+02°)
1.23026877081238e+03	(1.97331043142361e+01dB,1.79955710333117e+02°)	(1.44211490933757e+01dB,-1.22898489745573e+02°)
1.25892541179416e+03	(1.97331041919357e+01dB,1.79954678694673e+02°)	(1.45613245924158e+01dB,-1.23503573033822e+02°)
1.28824955169313e+03	(1.97331040638715e+01dB,1.79953623026314e+02°)	(1.46995515480857e+01dB,-1.24114157678960e+02°)
1.31825673855640e+03	(1.97331039297718e+01dB,1.79952542768312e+02°)	(1.48357953618100e+01dB,-1.24730015557797e+02°)
1.34896288259165e+03	(1.97331037893522e+01dB,1.79951437347904e+02°)	(1.49700226628380e+01dB,-1.25350906969249e+02°)
1.38038426460288e+03	(1.97331036423148e+01dB,1.79950306178985e+02°)	(1.51022014217866e+01dB,-1.25976580934712e+02°)
1.41253754462275e+03	(1.97331034883478e+01dB,1.79949148661796e+02°)	(1.52323010625065e+01dB,-1.26606775555336e+02°)
1.44543977074592e+03	(1.97331033271245e+01dB,1.79947964182612e+02°)	(1.53602925715127e+01dB,-1.27241218426177e+02°)
1.47910838816820e+03	(1.97331031583030e+01dB,1.79946752113409e+02°)	(1.54861486042049e+01dB,-1.27879627106659e+02°)
1.51356124843620e+03	(1.97331029815252e+01dB,1.79945511811537e+02°)	(1.56098435871023e+01dB,-1.28521709646304e+02°)
1.54881661891248e+03	(1.97331027964161e+01dB,1.79944242619376e+02°)	(1.57313538153225e+01dB,-1.29167165164119e+02°)
1.58489319246111e+03	(1.97331026025831e+01dB,1.79942943863988e+02°)	(1.58506575445471e+01dB,-1.29815684479519e+02°)
1.62181009735892e+03	(1.97331023996151e+01dB,1.79941614856762e+02°)	(1.59677350767429e+01dB,-1.30466950792130e+02°)
1.65958690743755e+03	(1.97331021870815e+01dB,1.79940254893046e+02°)	(1.60825688389417e+01dB,-1.31120640407291e+02°)
1.69824365246174e+03	(1.97331019645314e+01dB,1.79938863251775e+02°)	(1.61951434544227e+01dB,-1.31776423503601e+02°)
1.73780082874937e+03	(1.97331017314930e+01dB,1.79937439195090e+02°)	(1.63054458056970e+01dB,-1.32433964938351e+02°)
1.77827941003892e+03	(1.97331014874718e+01dB,1.79935981967943e+02°)	(1.64134650887523e+01dB,-1.33092925086315e+02°)
1.81970085860998e+03	(1.97331012319502e+01dB,1.79934490797701e+02°)	(1.65191928580861e+01dB,-1.33752960706914e+02°)
1.86208713666286e+03	(1.97331009643863e+01dB,1.79932964893734e+02°)	(1.66226230621319e+01dB,-1.34413725834518e+02°)
1.90546071796324e+03	(1.97331006842125e+01dB,1.79931403446997e+02°)	(1.67237520687629e+01dB,-1.35074872686305e+02°)
1.94984459975804e+03	(1.97331003908346e+01dB,1.79929805629598e+02°)	(1.68225786806463e+01dB,-1.35736052581946e+02°)
1.99526231496887e+03	(1.97331000836302e+01dB,1.79928170594364e+02°)	(1.69191041403103e+01dB,-1.36396916869208e+02°)
2.04173794466952e+03	(1.97330997619477e+01dB,1.79926497474387e+02°)	(1.70133321248781e+01dB,-1.37057117849509e+02°)
2.08929613085403e+03	(1.97330994251048e+01dB,1.79924785382570e+02°)	(1.71052687305164e+01dB,-1.37716309697460e+02°)
2.13796208950222e+03	(1.97330990723870e+01dB,1.79923033411151e+02°)	(1.71949224467374e+01dB,-1.38374149368502e+02°)
2.18776162394954e+03	(1.97330987030462e+01dB,1.79921240631223e+02°)	(1.72823041207845e+01dB,-1.39030297488882e+02°)
2.23872113856833e+03	(1.97330983162989e+01dB,1.79919406092247e+02°)	(1.73674269124172e+01dB,-1.39684419222426e+02°)
2.29086765276776e+03	(1.97330979113249e+01dB,1.79917528821539e+02°)	(1.74503062394923e+01dB,-1.40336185108845e+02°)
2.34422881531991e+03	(1.97330974872650e+01dB,1.79915607823762e+02°)	(1.75309597148162e+01dB,-1.40985271868629e+02°)
2.39883291901948e+03	(1.97330970432198e+01dB,1.79913642080396e+02°)	(1.76094070748084e+01dB,-1.41631363169977e+02°)
2.45470891568502e+03	(1.97330965782475e+01dB,1.79911630549195e+02°)	(1.76856701005817e+01dB,-1.42274150353645e+02°)
2.51188643150957e+03	(1.97330960913618e+01dB,1.79909572163639e+02°)	(1.77597725320920e+01dB,-1.42913333112037e+02°)
2.57039578276885e+03	(1.97330955815299e+01dB,1.79907465832366e+02°)	(1.78317399760581e+01dB,-1.43548620119390e+02°)
2.63026799189537e+03	(1.97330950476704e+01dB,1.79905310438593e+02°)	(1.79015998083823e+01dB,-1.44179729610397e+02°)
2.69153480392690e+03	(1.97330944886510e+01dB,1.79903104839527e+02°)	(1.79693810718296e+01dB,-1.44806389905153e+02°)
2.75422870333815e+03	(1.97330939032859e+01dB,1.79900847865757e+02°)	(1.80351143697355e+01dB,-1.45428339878843e+02°)
2.81838293126444e+03	(1.97330932903334e+01dB,1.79898538320633e+02°)	(1.80988317565194e+01dB,-1.46045329375105e+02°)
2.88403150312659e+03	(1.97330926484935e+01dB,1.79896174979634e+02°)	(1.81605666257757e+01dB,-1.46657119562558e+02°)
2.95120922666637e+03	(1.97330919764047e+01dB,1.79893756589716e+02°)	(1.82203535967029e+01dB,-1.47263483234429e+02°)
3.01995172040200e+03	(1.97330912726415e+01dB,1.79891281868653e+02°)	(1.82782283996118e+01dB,-1.47864205051745e+02°)
3.09029543251358e+03	(1.97330905357110e+01dB,1.79888749504351e+02°)	(1.83342277612250e+01dB,-1.48459081730971e+02°)
3.16227766016836e+03	(1.97330897640503e+01dB,1.79886158154157e+02°)	(1.83883892904471e+01dB,-1.49047922177396e+02°)
3.23593656929627e+03	(1.97330889560224e+01dB,1.79883506444146e+02°)	(1.84407513652474e+01dB,-1.49630547565933e+02°)
3.31131121482590e+03	(1.97330881099135e+01dB,1.79880792968390e+02°)	(1.84913530212515e+01dB,-1.50206791371372e+02°)
3.38844156139201e+03	(1.97330872239288e+01dB,1.79878016288218e+02°)	(1.85402338425914e+01dB,-1.50776499350355e+02°)
3.46736850452530e+03	(1.97330862961892e+01dB,1.79875174931449e+02°)	(1.85874338555149e+01dB,-1.51339529477650e+02°)
3.54813389233574e+03	(1.97330853247268e+01dB,1.79872267391615e+02°)	(1.86329934252023e+01dB,-1.51895751839472e+02°)
3.63078054770100e+03	(1.97330843074811e+01dB,1.79869292127159e+02°)	(1.86769531561865e+01dB,-1.52445048486769e+02°)
3.71535229097171e+03	(1.97330832422942e+01dB,1.79866247560621e+02°)	(1.87193537967176e+01dB,-1.52987313251525e+02°)
3.80189396320559e+03	(1.97330821269069e+01dB,1.79863132077801e+02°)	(1.87602361473636e+01dB,-1.53522451529189e+02°)
3.89045144994279e+03	(1.97330809589534e+01dB,1.79859944026901e+02°)	(1.87996409740839e+01dB,-1.54050380030407e+02°)
3.98107170553495e+03	(1.97330797359562e+01dB,1.79856681717653e+02°)	(1.88376089259661e+01dB,-1.54571026505235e+02°)
4.07380277804111e+03	(1.97330784553213e+01dB,1.79853343420424e+02°)	(1.88741804577643e+01dB,-1.55084329442972e+02°)
4.16869383470333e+03	(1.97330771143324e+01dB,1.79849927365294e+02°)	(1.89093957573363e+01dB,-1.55590237750733e+02°)
4.26579518801591e+03	(1.97330757101451e+01dB,1.79846431741123e+02°)	(1.89432946780332e+01dB,-1.56088710413773e+02°)
4.36515832240164e+03	(1.97330742397809e+01dB,1.79842854694590e+02°)	(1.89759166760533e+01dB,-1.56579716140497e+02°)
4.46683592150961e+03	(1.97330727001211e+01dB,1.79839194329207e+02°)	(1.90073007527411e+01dB,-1.57063232994960e+02°)
4.57088189614873e+03	(1.97330710879000e+01dB,1.79835448704320e+02°)	(1.90374854017742e+01dB,-1.57539248019530e+02°)
4.67735141287196e+03	(1.97330693996979e+01dB,1.79831615834078e+02°)	(1.90665085611568e+01dB,-1.58007756850256e+02°)
4.78630092322636e+03	(1.97330676319339e+01dB,1.79827693686380e+02°)	(1.90944075699093e+01dB,-1.58468763327294e+02°)
4.89778819368444e+03	(1.97330657808586e+01dB,1.79823680181798e+02°)	(1.91212191293221e+01dB,-1.58922279102628e+02°)
5.01187233627270e+03	(1.97330638425457e+01dB,1.79819573192476e+02°)	(1.91469792686235e+01dB,-1.59368323247108e+02°)
